
T0B80 000:411 SEGGER J-Link V4.80g Log File (0000ms, 0272ms total)
T0B80 000:411 DLL Compiled: Feb 13 2014 20:50:02 (0000ms, 0272ms total)
T0B80 000:411 Logging started @ 2014-11-26 16:01 (0000ms, 0272ms total)
T0B80 000:411 JLINK_SetWarnOutHandler(...) (0000ms, 0272ms total)
T0B80 000:411 JLINK_OpenEx(...)
Firmware: J-Link ARM V8 compiled Nov 25 2013 19:20:08
Hardware: V8.00
S/N: 17935099
Feature(s): RDI,FlashDL,FlashBP,JFlash  returns O.K. (0270ms, 0542ms total)
T0B80 000:681 JLINK_SetErrorOutHandler(...) (0000ms, 0542ms total)
T0B80 000:681 JLINK_ExecCommand("ProjectFile = "E:\work\Cabinet\Cabinet_Device\STM32F103VET\UV\JLinkSettings.ini"", ...)  returns 0x00 (0000ms, 0542ms total)
T0B80 000:696 JLINK_ExecCommand("Device = STM32F103VE", ...)Device "STM32F103VE" selected (512 KB flash, 64 KB RAM).  returns 0x00 (0011ms, 0553ms total)
T0B80 000:707 JLINK_ExecCommand("DisableConnectionTimeout", ...)  returns 0x01 (0000ms, 0553ms total)
T0B80 000:707 JLINK_GetHardwareVersion()  returns 0x13880 (0000ms, 0553ms total)
T0B80 000:707 JLINK_GetDLLVersion()  returns 48007 (0000ms, 0553ms total)
T0B80 000:707 JLINK_GetFirmwareString(...) (0000ms, 0553ms total)
T0B80 000:738 JLINK_GetDLLVersion()  returns 48007 (0000ms, 0553ms total)
T0B80 000:738 JLINK_GetCompileDateTime() (0000ms, 0553ms total)
T0B80 000:752 JLINK_GetFirmwareString(...) (0000ms, 0553ms total)
T0B80 000:764 JLINK_GetHardwareVersion()  returns 0x13880 (0000ms, 0553ms total)
T0B80 000:805 JLINK_TIF_Select(JLINKARM_TIF_JTAG)  returns 0x00 (0006ms, 0559ms total)
T0B80 000:811 JLINK_SetSpeed(10000) (0001ms, 0560ms total)
T0B80 000:812 JLINK_GetIdData(...) >0x2F8 JTAG>TotalIRLen = 9, IRPrint = 0x0011 >0x30 JTAG> >0x210 JTAG> >0x40 JTAG> >0x40 JTAG> >0x40 JTAG> >0x30 JTAG> >0x40 JTAG> >0x40 JTAG> >0x40 JTAG> >0x40 JTAG> >0x40 JTAG> >0x40 JTAG> >0x40 JTAG> >0x40 JTAG> >0x2F8 JTAG>TotalIRLen = 9, IRPrint = 0x0011 >0x30 JTAG> >0x210 JTAG> >0x70 JTAG> >0x40 JTAG> >0x40 JTAG> >0x40 JTAG> >0x50 JTAG> >0x80 JTAG> >0x40 JTAG> >0x30 JTAG> >0x40 JTAG> >0x40 JTAG> >0x30 JTAG> >0x40 JTAG> >0x50 JTAG>
Found Cortex-M3 r1p1, Little endian. -- CPU_WriteMem(4 bytes @ 0xE0002000) -- CPU_ReadMem(4 bytes @ 0xE000EDF0) -- CPU_ReadMem(4 bytes @ 0xE0002000)FPUnit: 6 code (BP) slots and 2 literal slots -- CPU_ReadMem(4 bytes @ 0xE000EDFC) -- CPU_ReadMem(4 bytes @ 0xE0001000) -- CPU_WriteMem(4 bytes @ 0xE0001000) -- CPU_ReadMem(4 bytes @ 0xE00FF010)TPIU fitted. -- CPU_ReadMem(4 bytes @ 0xE00FF014)ETM fitted. -- CPU_ReadMem(4 bytes @ 0xE00FF018) ScanLen=9 NumDevices=2 aId[0]=0x3BA00477 aIrRead[0]=0 aScanLen[0]=0
 aScanRead[0]=0 (0107ms, 0667ms total)
T0B80 000:919 JLINK_JTAG_GetDeviceID(DeviceIndex = 0)  returns 0x3BA00477 (0000ms, 0667ms total)
T0B80 000:919 JLINK_JTAG_GetDeviceInfo(DeviceIndex = 0)  returns 0x00 (0000ms, 0667ms total)
T0B80 000:919 JLINK_JTAG_GetDeviceID(DeviceIndex = 1)  returns 0x6414041 (0000ms, 0667ms total)
T0B80 000:919 JLINK_JTAG_GetDeviceInfo(DeviceIndex = 1)  returns 0x00 (0000ms, 0667ms total)
T0B80 000:919 JLINK_GetDeviceFamily()  returns 3 (0000ms, 0667ms total)
T0B80 000:929 JLINK_ReadMem (0xE00FFFF0, 0x0010 Bytes, ...) -- CPU is running -- CPU_ReadMem(16 bytes @ 0xE00FFFF0) -- Data:  0D 00 00 00 10 00 00 00 05 00 00 00 B1 00 00 00  returns 0x00 (0001ms, 0668ms total)
T0B80 000:930 JLINK_ReadMem (0xE00FFFD0, 0x0020 Bytes, ...) -- CPU is running -- CPU_ReadMem(32 bytes @ 0xE00FFFD0) -- Data:  00 00 00 00 00 00 00 00 00 00 00 00 00 00 00 00 ...  returns 0x00 (0001ms, 0669ms total)
T0B80 000:931 JLINK_ReadMem (0xE00FF000, 0x0018 Bytes, ...) -- CPU is running -- CPU_ReadMem(24 bytes @ 0xE00FF000) -- Data:  03 F0 F0 FF 03 20 F0 FF 03 30 F0 FF 03 10 F0 FF ...  returns 0x00 (0001ms, 0670ms total)
T0B80 000:932 JLINK_ReadMemU32(0xE000ED00, 0x0001 Items, ...) -- CPU is running -- CPU_ReadMem(4 bytes @ 0xE000ED00) -- Data:  31 C2 1F 41  returns 0x01 (0001ms, 0671ms total)
T0B80 000:933 JLINK_SetResetType(JLINKARM_RESET_TYPE_NORMAL)  returns JLINKARM_RESET_TYPE_NORMAL (0000ms, 0671ms total)
T0B80 000:933 JLINK_Reset() -- CPU is running -- CPU_WriteMem(4 bytes @ 0xE000EDF0) -- CPU is running -- CPU_WriteMem(4 bytes @ 0xE000EDFC) -- CPU is running -- CPU_WriteMem(4 bytes @ 0xE000ED0C) -- CPU is running -- CPU_ReadMem(4 bytes @ 0xE000EDF0) -- CPU is running -- CPU_ReadMem(4 bytes @ 0xE000EDF0) -- CPU is running -- CPU_WriteMem(4 bytes @ 0xE000EDF0) -- CPU is running -- CPU_WriteMem(4 bytes @ 0xE000EDFC) -- CPU is running -- CPU_ReadMem(4 bytes @ 0xE000EDF0) >0x80 JTAG> >0x40 JTAG> >0x30 JTAG>
 >0x40 JTAG> >0x50 JTAG> >0x40 JTAG> -- CPU_WriteMem(4 bytes @ 0xE000EDFC) -- CPU_WriteMem(4 bytes @ 0xE0001028) -- CPU_WriteMem(4 bytes @ 0xE0001038) -- CPU_WriteMem(4 bytes @ 0xE0001048) -- CPU_WriteMem(4 bytes @ 0xE0001058) -- CPU_WriteMem(4 bytes @ 0xE0002000) -- CPU_ReadMem(4 bytes @ 0xE000EDFC) -- CPU_ReadMem(4 bytes @ 0xE0001000) (0037ms, 0708ms total)
T0B80 000:970 JLINK_Halt()  returns 0x00 (0000ms, 0708ms total)
T0B80 000:970 JLINK_IsHalted()  returns TRUE (0000ms, 0708ms total)
T0B80 000:970 JLINK_ReadMemU32(0xE000EDF0, 0x0001 Items, ...) -- CPU_ReadMem(4 bytes @ 0xE000EDF0) -- Data:  03 00 03 00  returns 0x01 (0001ms, 0709ms total)
T0B80 000:971 JLINK_WriteU32(0xE000EDF0, 0xA05F0003) -- CPU_WriteMem(4 bytes @ 0xE000EDF0)  returns 0x00 (0001ms, 0710ms total)
T0B80 000:972 JLINK_WriteU32(0xE000EDFC, 0x01000000) -- CPU_WriteMem(4 bytes @ 0xE000EDFC)  returns 0x00 (0001ms, 0711ms total)
T0B80 001:018 JLINK_GetHWStatus(...)  returns 0x00 (0001ms, 0712ms total)
T0B80 001:046 JLINK_GetNumBPUnits(Type = 0xFFFFFF00)  returns 0x06 (0001ms, 0713ms total)
T0B80 001:047 JLINK_GetNumBPUnits(Type = 0xF0)  returns 0x2000 (0000ms, 0713ms total)
T0B80 001:047 JLINK_GetNumWPUnits()  returns 0x04 (0000ms, 0713ms total)
T0B80 001:053 JLINK_GetSpeed()  returns 0x2580 (0001ms, 0714ms total)
T0B80 001:056 JLINK_ReadMemU32(0xE000E004, 0x0001 Items, ...) -- CPU_ReadMem(4 bytes @ 0xE000E004) -- Data:  01 00 00 00  returns 0x01 (0001ms, 0715ms total)
T0B80 001:057 JLINK_ReadMemU32(0xE000E004, 0x0001 Items, ...) -- CPU_ReadMem(4 bytes @ 0xE000E004) -- Data:  01 00 00 00  returns 0x01 (0001ms, 0716ms total)
T0B80 001:058 JLINK_WriteMem(0xE0001000, 0x001C Bytes, ...) -- Data:  01 00 00 00 00 00 00 00 00 00 00 00 00 00 00 00 ... -- CPU_WriteMem(28 bytes @ 0xE0001000)  returns 0x1C (0001ms, 0717ms total)
T0B80 001:059 JLINK_ReadMem (0xE0001000, 0x001C Bytes, ...) -- CPU_ReadMem(28 bytes @ 0xE0001000) -- Data:  01 00 00 40 00 00 00 00 00 00 00 00 00 00 00 00 ...  returns 0x00 (0001ms, 0718ms total)
T0B80 001:060 JLINK_Halt()  returns 0x00 (0000ms, 0718ms total)
T0B80 001:060 JLINK_IsHalted()  returns TRUE (0000ms, 0718ms total)
T0B80 001:062 JLINK_WriteMem(0x20000000, 0x0164 Bytes, ...) -- Data:  00 BE 0A E0 0D 78 2D 06 68 40 08 24 40 00 00 D3 ... -- CPU_WriteMem(356 bytes @ 0x20000000)  returns 0x164 (0003ms, 0721ms total)
T0B80 001:065 JLINK_WriteReg(R0, 0x08000000)  returns 0x00 (0000ms, 0721ms total)
T0B80 001:065 JLINK_WriteReg(R1, 0x00B71B00)  returns 0x00 (0000ms, 0721ms total)
T0B80 001:065 JLINK_WriteReg(R2, 0x00000001)  returns 0x00 (0000ms, 0721ms total)
T0B80 001:065 JLINK_WriteReg(R3, 0x00000000)  returns 0x00 (0000ms, 0721ms total)
T0B80 001:065 JLINK_WriteReg(R4, 0x00000000)  returns 0x00 (0000ms, 0721ms total)
T0B80 001:065 JLINK_WriteReg(R5, 0x00000000)  returns 0x00 (0000ms, 0721ms total)
T0B80 001:065 JLINK_WriteReg(R6, 0x00000000)  returns 0x00 (0000ms, 0721ms total)
T0B80 001:065 JLINK_WriteReg(R7, 0x00000000)  returns 0x00 (0000ms, 0721ms total)
T0B80 001:065 JLINK_WriteReg(R8, 0x00000000)  returns 0x00 (0000ms, 0721ms total)
T0B80 001:065 JLINK_WriteReg(R9, 0x20000160)  returns 0x00 (0000ms, 0721ms total)
T0B80 001:065 JLINK_WriteReg(R10, 0x00000000)  returns 0x00 (0000ms, 0721ms total)
T0B80 001:065 JLINK_WriteReg(R11, 0x00000000)  returns 0x00 (0000ms, 0721ms total)
T0B80 001:065 JLINK_WriteReg(R12, 0x00000000)  returns 0x00 (0000ms, 0721ms total)
T0B80 001:065 JLINK_WriteReg(R13 (SP), 0x20001000)  returns 0x00 (0000ms, 0721ms total)
T0B80 001:065 JLINK_WriteReg(R14, 0x20000001)  returns 0x00 (0000ms, 0721ms total)
T0B80 001:065 JLINK_WriteReg(R15 (PC), 0x20000038)  returns 0x00 (0000ms, 0721ms total)
T0B80 001:065 JLINK_WriteReg(XPSR, 0x01000000)  returns 0x00 (0000ms, 0721ms total)
T0B80 001:065 JLINK_WriteReg(MSP, 0x20001000)  returns 0x00 (0000ms, 0721ms total)
T0B80 001:066 JLINK_WriteReg(PSP, 0x20001000)  returns 0x00 (0000ms, 0722ms total)
T0B80 001:066 JLINK_WriteReg(CFBP, 0x00000000)  returns 0x00 (0000ms, 0722ms total)
T0B80 001:066 JLINK_SetBPEx(Addr = 0x20000000, Type = 0xFFFFFFF2) -- CPU_ReadMem(2 bytes @ 0x20000000)  returns 0x00000001 (0001ms, 0723ms total)
T0B80 001:067 JLINK_Go() -- CPU_WriteMem(2 bytes @ 0x20000000) -- CPU_WriteMem(4 bytes @ 0xE0002008) -- CPU_WriteMem(4 bytes @ 0xE000200C) -- CPU_WriteMem(4 bytes @ 0xE0002010) -- CPU_WriteMem(4 bytes @ 0xE0002014) -- CPU_WriteMem(4 bytes @ 0xE0002018) -- CPU_WriteMem(4 bytes @ 0xE000201C) -- CPU_WriteMem(4 bytes @ 0xE0001004) (0010ms, 0733ms total)
T0B80 001:077 JLINK_IsHalted() -- CPU_ReadMem(2 bytes @ 0x20000000)  returns TRUE (0004ms, 0737ms total)
T0B80 001:081 JLINK_ReadReg(R15 (PC))  returns 0x20000000 (0000ms, 0733ms total)
T0B80 001:081 JLINK_ClrBPEx(BPHandle = 0x00000001)  returns 0x00 (0000ms, 0733ms total)
T0B80 001:081 JLINK_ReadReg(R0)  returns 0x00000000 (0000ms, 0733ms total)
T0B80 001:081 JLINK_WriteReg(R0, 0x08000000)  returns 0x00 (0000ms, 0733ms total)
T0B80 001:081 JLINK_WriteReg(R1, 0x00B71B00)  returns 0x00 (0000ms, 0733ms total)
T0B80 001:081 JLINK_WriteReg(R2, 0x00000001)  returns 0x00 (0000ms, 0733ms total)
T0B80 001:081 JLINK_WriteReg(R3, 0x00000000)  returns 0x00 (0000ms, 0733ms total)
T0B80 001:081 JLINK_WriteReg(R4, 0x00000000)  returns 0x00 (0000ms, 0733ms total)
T0B80 001:081 JLINK_WriteReg(R5, 0x00000000)  returns 0x00 (0000ms, 0733ms total)
T0B80 001:081 JLINK_WriteReg(R6, 0x00000000)  returns 0x00 (0000ms, 0733ms total)
T0B80 001:081 JLINK_WriteReg(R7, 0x00000000)  returns 0x00 (0000ms, 0733ms total)
T0B80 001:081 JLINK_WriteReg(R8, 0x00000000)  returns 0x00 (0000ms, 0733ms total)
T0B80 001:081 JLINK_WriteReg(R9, 0x20000160)  returns 0x00 (0000ms, 0733ms total)
T0B80 001:081 JLINK_WriteReg(R10, 0x00000000)  returns 0x00 (0000ms, 0733ms total)
T0B80 001:081 JLINK_WriteReg(R11, 0x00000000)  returns 0x00 (0000ms, 0733ms total)
T0B80 001:081 JLINK_WriteReg(R12, 0x00000000)  returns 0x00 (0000ms, 0733ms total)
T0B80 001:081 JLINK_WriteReg(R13 (SP), 0x20001000)  returns 0x00 (0000ms, 0733ms total)
T0B80 001:081 JLINK_WriteReg(R14, 0x20000001)  returns 0x00 (0000ms, 0733ms total)
T0B80 001:081 JLINK_WriteReg(R15 (PC), 0x2000007C)  returns 0x00 (0000ms, 0733ms total)
T0B80 001:081 JLINK_WriteReg(XPSR, 0x01000000)  returns 0x00 (0000ms, 0733ms total)
T0B80 001:081 JLINK_WriteReg(MSP, 0x20001000)  returns 0x00 (0000ms, 0733ms total)
T0B80 001:081 JLINK_WriteReg(PSP, 0x20001000)  returns 0x00 (0000ms, 0733ms total)
T0B80 001:081 JLINK_WriteReg(CFBP, 0x00000000)  returns 0x00 (0000ms, 0733ms total)
T0B80 001:081 JLINK_SetBPEx(Addr = 0x20000000, Type = 0xFFFFFFF2)  returns 0x00000002 (0000ms, 0733ms total)
T0B80 001:081 JLINK_Go() (0003ms, 0736ms total)
T0B80 001:084 JLINK_IsHalted()  returns FALSE (0001ms, 0737ms total)
T0B80 001:239 JLINK_IsHalted() -- CPU_ReadMem(2 bytes @ 0x20000000)  returns TRUE (0004ms, 0740ms total)
T0B80 001:243 JLINK_ReadReg(R15 (PC))  returns 0x20000000 (0000ms, 0736ms total)
T0B80 001:243 JLINK_ClrBPEx(BPHandle = 0x00000002)  returns 0x00 (0000ms, 0736ms total)
T0B80 001:243 JLINK_ReadReg(R0)  returns 0x00000000 (0000ms, 0736ms total)
T0B80 001:294 JLINK_WriteReg(R0, 0x00000001)  returns 0x00 (0000ms, 0736ms total)
T0B80 001:294 JLINK_WriteReg(R1, 0x00B71B00)  returns 0x00 (0000ms, 0736ms total)
T0B80 001:294 JLINK_WriteReg(R2, 0x00000001)  returns 0x00 (0000ms, 0736ms total)
T0B80 001:294 JLINK_WriteReg(R3, 0x00000000)  returns 0x00 (0000ms, 0736ms total)
T0B80 001:294 JLINK_WriteReg(R4, 0x00000000)  returns 0x00 (0000ms, 0736ms total)
T0B80 001:294 JLINK_WriteReg(R5, 0x00000000)  returns 0x00 (0000ms, 0736ms total)
T0B80 001:294 JLINK_WriteReg(R6, 0x00000000)  returns 0x00 (0000ms, 0736ms total)
T0B80 001:294 JLINK_WriteReg(R7, 0x00000000)  returns 0x00 (0000ms, 0736ms total)
T0B80 001:294 JLINK_WriteReg(R8, 0x00000000)  returns 0x00 (0000ms, 0736ms total)
T0B80 001:294 JLINK_WriteReg(R9, 0x20000160)  returns 0x00 (0000ms, 0736ms total)
T0B80 001:294 JLINK_WriteReg(R10, 0x00000000)  returns 0x00 (0000ms, 0736ms total)
T0B80 001:294 JLINK_WriteReg(R11, 0x00000000)  returns 0x00 (0000ms, 0736ms total)
T0B80 001:294 JLINK_WriteReg(R12, 0x00000000)  returns 0x00 (0000ms, 0736ms total)
T0B80 001:294 JLINK_WriteReg(R13 (SP), 0x20001000)  returns 0x00 (0000ms, 0736ms total)
T0B80 001:294 JLINK_WriteReg(R14, 0x20000001)  returns 0x00 (0000ms, 0736ms total)
T0B80 001:294 JLINK_WriteReg(R15 (PC), 0x2000006A)  returns 0x00 (0000ms, 0736ms total)
T0B80 001:294 JLINK_WriteReg(XPSR, 0x01000000)  returns 0x00 (0000ms, 0736ms total)
T0B80 001:294 JLINK_WriteReg(MSP, 0x20001000)  returns 0x00 (0000ms, 0736ms total)
T0B80 001:294 JLINK_WriteReg(PSP, 0x20001000)  returns 0x00 (0000ms, 0736ms total)
T0B80 001:294 JLINK_WriteReg(CFBP, 0x00000000)  returns 0x00 (0000ms, 0736ms total)
T0B80 001:295 JLINK_SetBPEx(Addr = 0x20000000, Type = 0xFFFFFFF2)  returns 0x00000003 (0000ms, 0736ms total)
T0B80 001:295 JLINK_Go() (0002ms, 0738ms total)
T0B80 001:297 JLINK_IsHalted() -- CPU_ReadMem(2 bytes @ 0x20000000)  returns TRUE (0004ms, 0742ms total)
T0B80 001:301 JLINK_ReadReg(R15 (PC))  returns 0x20000000 (0000ms, 0738ms total)
T0B80 001:301 JLINK_ClrBPEx(BPHandle = 0x00000003)  returns 0x00 (0000ms, 0738ms total)
T0B80 001:301 JLINK_ReadReg(R0)  returns 0x00000000 (0000ms, 0738ms total)
T0B80 001:317 JLINK_WriteMem(0x20000000, 0x0164 Bytes, ...) -- Data:  00 BE 0A E0 0D 78 2D 06 68 40 08 24 40 00 00 D3 ... -- CPU_WriteMem(356 bytes @ 0x20000000)  returns 0x164 (0003ms, 0741ms total)
T0B80 001:320 JLINK_WriteReg(R0, 0x08000000)  returns 0x00 (0000ms, 0741ms total)
T0B80 001:320 JLINK_WriteReg(R1, 0x00B71B00)  returns 0x00 (0000ms, 0741ms total)
T0B80 001:320 JLINK_WriteReg(R2, 0x00000002)  returns 0x00 (0000ms, 0741ms total)
T0B80 001:320 JLINK_WriteReg(R3, 0x00000000)  returns 0x00 (0000ms, 0741ms total)
T0B80 001:320 JLINK_WriteReg(R4, 0x00000000)  returns 0x00 (0000ms, 0741ms total)
T0B80 001:320 JLINK_WriteReg(R5, 0x00000000)  returns 0x00 (0000ms, 0741ms total)
T0B80 001:320 JLINK_WriteReg(R6, 0x00000000)  returns 0x00 (0000ms, 0741ms total)
T0B80 001:320 JLINK_WriteReg(R7, 0x00000000)  returns 0x00 (0000ms, 0741ms total)
T0B80 001:320 JLINK_WriteReg(R8, 0x00000000)  returns 0x00 (0000ms, 0741ms total)
T0B80 001:320 JLINK_WriteReg(R9, 0x20000160)  returns 0x00 (0000ms, 0741ms total)
T0B80 001:320 JLINK_WriteReg(R10, 0x00000000)  returns 0x00 (0000ms, 0741ms total)
T0B80 001:320 JLINK_WriteReg(R11, 0x00000000)  returns 0x00 (0000ms, 0741ms total)
T0B80 001:320 JLINK_WriteReg(R12, 0x00000000)  returns 0x00 (0000ms, 0741ms total)
T0B80 001:320 JLINK_WriteReg(R13 (SP), 0x20001000)  returns 0x00 (0000ms, 0741ms total)
T0B80 001:320 JLINK_WriteReg(R14, 0x20000001)  returns 0x00 (0000ms, 0741ms total)
T0B80 001:320 JLINK_WriteReg(R15 (PC), 0x20000038)  returns 0x00 (0000ms, 0741ms total)
T0B80 001:320 JLINK_WriteReg(XPSR, 0x01000000)  returns 0x00 (0000ms, 0741ms total)
T0B80 001:320 JLINK_WriteReg(MSP, 0x20001000)  returns 0x00 (0000ms, 0741ms total)
T0B80 001:320 JLINK_WriteReg(PSP, 0x20001000)  returns 0x00 (0000ms, 0741ms total)
T0B80 001:320 JLINK_WriteReg(CFBP, 0x00000000)  returns 0x00 (0000ms, 0741ms total)
T0B80 001:320 JLINK_SetBPEx(Addr = 0x20000000, Type = 0xFFFFFFF2) -- CPU_ReadMem(2 bytes @ 0x20000000)  returns 0x00000004 (0001ms, 0742ms total)
T0B80 001:321 JLINK_Go() -- CPU_WriteMem(2 bytes @ 0x20000000) (0003ms, 0745ms total)
T0B80 001:324 JLINK_IsHalted() -- CPU_ReadMem(2 bytes @ 0x20000000)  returns TRUE (0004ms, 0749ms total)
T0B80 001:328 JLINK_ReadReg(R15 (PC))  returns 0x20000000 (0000ms, 0745ms total)
T0B80 001:328 JLINK_ClrBPEx(BPHandle = 0x00000004)  returns 0x00 (0000ms, 0745ms total)
T0B80 001:328 JLINK_ReadReg(R0)  returns 0x00000000 (0000ms, 0745ms total)
T0B80 001:328 JLINK_WriteMem(0x20000164, 0x0400 Bytes, ...) -- Data:  90 27 00 20 C9 5E 00 08 51 02 00 08 5B 02 00 08 ... -- CPU_WriteMem(1024 bytes @ 0x20000164)  returns 0x400 (0007ms, 0752ms total)
T0B80 001:335 JLINK_WriteReg(R0, 0x08000000)  returns 0x00 (0000ms, 0752ms total)
T0B80 001:335 JLINK_WriteReg(R1, 0x00000400)  returns 0x00 (0000ms, 0752ms total)
T0B80 001:335 JLINK_WriteReg(R2, 0x20000164)  returns 0x00 (0000ms, 0752ms total)
T0B80 001:335 JLINK_WriteReg(R3, 0x00000000)  returns 0x00 (0000ms, 0752ms total)
T0B80 001:335 JLINK_WriteReg(R4, 0x00000000)  returns 0x00 (0000ms, 0752ms total)
T0B80 001:335 JLINK_WriteReg(R5, 0x00000000)  returns 0x00 (0000ms, 0752ms total)
T0B80 001:335 JLINK_WriteReg(R6, 0x00000000)  returns 0x00 (0000ms, 0752ms total)
T0B80 001:335 JLINK_WriteReg(R7, 0x00000000)  returns 0x00 (0000ms, 0752ms total)
T0B80 001:335 JLINK_WriteReg(R8, 0x00000000)  returns 0x00 (0000ms, 0752ms total)
T0B80 001:335 JLINK_WriteReg(R9, 0x20000160)  returns 0x00 (0000ms, 0752ms total)
T0B80 001:335 JLINK_WriteReg(R10, 0x00000000)  returns 0x00 (0000ms, 0752ms total)
T0B80 001:335 JLINK_WriteReg(R11, 0x00000000)  returns 0x00 (0000ms, 0752ms total)
T0B80 001:335 JLINK_WriteReg(R12, 0x00000000)  returns 0x00 (0000ms, 0752ms total)
T0B80 001:335 JLINK_WriteReg(R13 (SP), 0x20001000)  returns 0x00 (0000ms, 0752ms total)
T0B80 001:335 JLINK_WriteReg(R14, 0x20000001)  returns 0x00 (0000ms, 0752ms total)
T0B80 001:335 JLINK_WriteReg(R15 (PC), 0x200000F4)  returns 0x00 (0000ms, 0752ms total)
T0B80 001:335 JLINK_WriteReg(XPSR, 0x01000000)  returns 0x00 (0000ms, 0752ms total)
T0B80 001:335 JLINK_WriteReg(MSP, 0x20001000)  returns 0x00 (0000ms, 0752ms total)
T0B80 001:335 JLINK_WriteReg(PSP, 0x20001000)  returns 0x00 (0000ms, 0752ms total)
T0B80 001:335 JLINK_WriteReg(CFBP, 0x00000000)  returns 0x00 (0000ms, 0752ms total)
T0B80 001:335 JLINK_SetBPEx(Addr = 0x20000000, Type = 0xFFFFFFF2)  returns 0x00000005 (0000ms, 0752ms total)
T0B80 001:335 JLINK_Go() (0003ms, 0755ms total)
T0B80 001:338 JLINK_IsHalted()  returns FALSE (0001ms, 0756ms total)
T0B80 001:427 JLINK_IsHalted() -- CPU_ReadMem(2 bytes @ 0x20000000)  returns TRUE (0003ms, 0758ms total)
T0B80 001:430 JLINK_ReadReg(R15 (PC))  returns 0x20000000 (0000ms, 0755ms total)
T0B80 001:430 JLINK_ClrBPEx(BPHandle = 0x00000005)  returns 0x00 (0000ms, 0755ms total)
T0B80 001:430 JLINK_ReadReg(R0)  returns 0x00000000 (0000ms, 0755ms total)
T0B80 001:431 JLINK_WriteMem(0x20000164, 0x0400 Bytes, ...) -- Data:  F8 A0 05 F0 73 FE 00 BF FE E7 FB A0 05 F0 6E FE ... -- CPU_WriteMem(1024 bytes @ 0x20000164)  returns 0x400 (0006ms, 0761ms total)
T0B80 001:437 JLINK_WriteReg(R0, 0x08000400)  returns 0x00 (0000ms, 0761ms total)
T0B80 001:437 JLINK_WriteReg(R1, 0x00000400)  returns 0x00 (0000ms, 0761ms total)
T0B80 001:437 JLINK_WriteReg(R2, 0x20000164)  returns 0x00 (0000ms, 0761ms total)
T0B80 001:437 JLINK_WriteReg(R3, 0x00000000)  returns 0x00 (0000ms, 0761ms total)
T0B80 001:437 JLINK_WriteReg(R4, 0x00000000)  returns 0x00 (0000ms, 0761ms total)
T0B80 001:437 JLINK_WriteReg(R5, 0x00000000)  returns 0x00 (0000ms, 0761ms total)
T0B80 001:437 JLINK_WriteReg(R6, 0x00000000)  returns 0x00 (0000ms, 0761ms total)
T0B80 001:437 JLINK_WriteReg(R7, 0x00000000)  returns 0x00 (0000ms, 0761ms total)
T0B80 001:437 JLINK_WriteReg(R8, 0x00000000)  returns 0x00 (0000ms, 0761ms total)
T0B80 001:437 JLINK_WriteReg(R9, 0x20000160)  returns 0x00 (0000ms, 0761ms total)
T0B80 001:437 JLINK_WriteReg(R10, 0x00000000)  returns 0x00 (0000ms, 0761ms total)
T0B80 001:437 JLINK_WriteReg(R11, 0x00000000)  returns 0x00 (0000ms, 0761ms total)
T0B80 001:437 JLINK_WriteReg(R12, 0x00000000)  returns 0x00 (0000ms, 0761ms total)
T0B80 001:437 JLINK_WriteReg(R13 (SP), 0x20001000)  returns 0x00 (0000ms, 0761ms total)
T0B80 001:437 JLINK_WriteReg(R14, 0x20000001)  returns 0x00 (0000ms, 0761ms total)
T0B80 001:437 JLINK_WriteReg(R15 (PC), 0x200000F4)  returns 0x00 (0000ms, 0761ms total)
T0B80 001:437 JLINK_WriteReg(XPSR, 0x01000000)  returns 0x00 (0000ms, 0761ms total)
T0B80 001:437 JLINK_WriteReg(MSP, 0x20001000)  returns 0x00 (0000ms, 0761ms total)
T0B80 001:437 JLINK_WriteReg(PSP, 0x20001000)  returns 0x00 (0000ms, 0761ms total)
T0B80 001:437 JLINK_WriteReg(CFBP, 0x00000000)  returns 0x00 (0000ms, 0761ms total)
T0B80 001:437 JLINK_SetBPEx(Addr = 0x20000000, Type = 0xFFFFFFF2)  returns 0x00000006 (0000ms, 0761ms total)
T0B80 001:437 JLINK_Go() (0003ms, 0764ms total)
T0B80 001:440 JLINK_IsHalted()  returns FALSE (0001ms, 0765ms total)
T0B80 001:506 JLINK_IsHalted() -- CPU_ReadMem(2 bytes @ 0x20000000)  returns TRUE (0003ms, 0767ms total)
T0B80 001:509 JLINK_ReadReg(R15 (PC))  returns 0x20000000 (0000ms, 0764ms total)
T0B80 001:509 JLINK_ClrBPEx(BPHandle = 0x00000006)  returns 0x00 (0000ms, 0764ms total)
T0B80 001:509 JLINK_ReadReg(R0)  returns 0x00000000 (0000ms, 0764ms total)
T0B80 001:510 JLINK_WriteMem(0x20000164, 0x0400 Bytes, ...) -- Data:  48 61 6E 64 6C 65 72 20 0D 0A 00 00 00 38 01 40 ... -- CPU_WriteMem(1024 bytes @ 0x20000164)  returns 0x400 (0006ms, 0770ms total)
T0B80 001:516 JLINK_WriteReg(R0, 0x08000800)  returns 0x00 (0000ms, 0770ms total)
T0B80 001:516 JLINK_WriteReg(R1, 0x00000400)  returns 0x00 (0000ms, 0770ms total)
T0B80 001:516 JLINK_WriteReg(R2, 0x20000164)  returns 0x00 (0000ms, 0770ms total)
T0B80 001:516 JLINK_WriteReg(R3, 0x00000000)  returns 0x00 (0000ms, 0770ms total)
T0B80 001:516 JLINK_WriteReg(R4, 0x00000000)  returns 0x00 (0000ms, 0770ms total)
T0B80 001:516 JLINK_WriteReg(R5, 0x00000000)  returns 0x00 (0000ms, 0770ms total)
T0B80 001:516 JLINK_WriteReg(R6, 0x00000000)  returns 0x00 (0000ms, 0770ms total)
T0B80 001:516 JLINK_WriteReg(R7, 0x00000000)  returns 0x00 (0000ms, 0770ms total)
T0B80 001:516 JLINK_WriteReg(R8, 0x00000000)  returns 0x00 (0000ms, 0770ms total)
T0B80 001:516 JLINK_WriteReg(R9, 0x20000160)  returns 0x00 (0000ms, 0770ms total)
T0B80 001:516 JLINK_WriteReg(R10, 0x00000000)  returns 0x00 (0000ms, 0770ms total)
T0B80 001:516 JLINK_WriteReg(R11, 0x00000000)  returns 0x00 (0000ms, 0770ms total)
T0B80 001:516 JLINK_WriteReg(R12, 0x00000000)  returns 0x00 (0000ms, 0770ms total)
T0B80 001:516 JLINK_WriteReg(R13 (SP), 0x20001000)  returns 0x00 (0000ms, 0770ms total)
T0B80 001:516 JLINK_WriteReg(R14, 0x20000001)  returns 0x00 (0000ms, 0770ms total)
T0B80 001:516 JLINK_WriteReg(R15 (PC), 0x200000F4)  returns 0x00 (0000ms, 0770ms total)
T0B80 001:516 JLINK_WriteReg(XPSR, 0x01000000)  returns 0x00 (0000ms, 0770ms total)
T0B80 001:516 JLINK_WriteReg(MSP, 0x20001000)  returns 0x00 (0000ms, 0770ms total)
T0B80 001:516 JLINK_WriteReg(PSP, 0x20001000)  returns 0x00 (0000ms, 0770ms total)
T0B80 001:516 JLINK_WriteReg(CFBP, 0x00000000)  returns 0x00 (0000ms, 0770ms total)
T0B80 001:516 JLINK_SetBPEx(Addr = 0x20000000, Type = 0xFFFFFFF2)  returns 0x00000007 (0000ms, 0770ms total)
T0B80 001:516 JLINK_Go() (0003ms, 0773ms total)
T0B80 001:519 JLINK_IsHalted()  returns FALSE (0001ms, 0774ms total)
T0B80 001:522 JLINK_IsHalted()  returns FALSE (0000ms, 0773ms total)
T0B80 001:523 JLINK_IsHalted()  returns FALSE (0000ms, 0773ms total)
T0B80 001:524 JLINK_IsHalted()  returns FALSE (0000ms, 0773ms total)
T0B80 001:525 JLINK_IsHalted()  returns FALSE (0000ms, 0773ms total)
T0B80 001:526 JLINK_IsHalted()  returns FALSE (0001ms, 0774ms total)
T0B80 001:528 JLINK_IsHalted()  returns FALSE (0000ms, 0773ms total)
T0B80 001:529 JLINK_IsHalted()  returns FALSE (0000ms, 0773ms total)
T0B80 001:533 JLINK_IsHalted()  returns FALSE (0000ms, 0773ms total)
T0B80 001:534 JLINK_IsHalted()  returns FALSE (0000ms, 0773ms total)
T0B80 001:535 JLINK_IsHalted()  returns FALSE (0000ms, 0773ms total)
T0B80 001:536 JLINK_IsHalted()  returns FALSE (0000ms, 0773ms total)
T0B80 001:537 JLINK_IsHalted()  returns FALSE (0000ms, 0773ms total)
T0B80 001:538 JLINK_IsHalted()  returns FALSE (0000ms, 0773ms total)
T0B80 001:539 JLINK_IsHalted()  returns FALSE (0000ms, 0773ms total)
T0B80 001:540 JLINK_IsHalted()  returns FALSE (0000ms, 0773ms total)
T0B80 001:541 JLINK_IsHalted()  returns FALSE (0000ms, 0773ms total)
T0B80 001:542 JLINK_IsHalted()  returns FALSE (0000ms, 0773ms total)
T0B80 001:543 JLINK_IsHalted()  returns FALSE (0000ms, 0773ms total)
T0B80 001:544 JLINK_IsHalted()  returns FALSE (0000ms, 0773ms total)
T0B80 001:545 JLINK_IsHalted()  returns FALSE (0000ms, 0773ms total)
T0B80 001:546 JLINK_IsHalted()  returns FALSE (0000ms, 0773ms total)
T0B80 001:547 JLINK_IsHalted()  returns FALSE (0000ms, 0773ms total)
T0B80 001:548 JLINK_IsHalted()  returns FALSE (0000ms, 0773ms total)
T0B80 001:549 JLINK_IsHalted()  returns FALSE (0000ms, 0773ms total)
T0B80 001:550 JLINK_IsHalted() -- CPU_ReadMem(2 bytes @ 0x20000000)  returns TRUE (0003ms, 0776ms total)
T0B80 001:553 JLINK_ReadReg(R15 (PC))  returns 0x20000000 (0000ms, 0773ms total)
T0B80 001:553 JLINK_ClrBPEx(BPHandle = 0x00000007)  returns 0x00 (0000ms, 0773ms total)
T0B80 001:553 JLINK_ReadReg(R0)  returns 0x00000000 (0000ms, 0773ms total)
T0B80 001:554 JLINK_WriteMem(0x20000164, 0x0400 Bytes, ...) -- Data:  25 64 2E 25 64 2E 25 64 0D 0A 00 00 3D 3D 3D 3D ... -- CPU_WriteMem(1024 bytes @ 0x20000164)  returns 0x400 (0006ms, 0779ms total)
T0B80 001:560 JLINK_WriteReg(R0, 0x08000C00)  returns 0x00 (0000ms, 0779ms total)
T0B80 001:560 JLINK_WriteReg(R1, 0x00000400)  returns 0x00 (0000ms, 0779ms total)
T0B80 001:560 JLINK_WriteReg(R2, 0x20000164)  returns 0x00 (0000ms, 0779ms total)
T0B80 001:560 JLINK_WriteReg(R3, 0x00000000)  returns 0x00 (0000ms, 0779ms total)
T0B80 001:560 JLINK_WriteReg(R4, 0x00000000)  returns 0x00 (0000ms, 0779ms total)
T0B80 001:560 JLINK_WriteReg(R5, 0x00000000)  returns 0x00 (0000ms, 0779ms total)
T0B80 001:560 JLINK_WriteReg(R6, 0x00000000)  returns 0x00 (0000ms, 0779ms total)
T0B80 001:560 JLINK_WriteReg(R7, 0x00000000)  returns 0x00 (0000ms, 0779ms total)
T0B80 001:560 JLINK_WriteReg(R8, 0x00000000)  returns 0x00 (0000ms, 0779ms total)
T0B80 001:560 JLINK_WriteReg(R9, 0x20000160)  returns 0x00 (0000ms, 0779ms total)
T0B80 001:560 JLINK_WriteReg(R10, 0x00000000)  returns 0x00 (0000ms, 0779ms total)
T0B80 001:560 JLINK_WriteReg(R11, 0x00000000)  returns 0x00 (0000ms, 0779ms total)
T0B80 001:560 JLINK_WriteReg(R12, 0x00000000)  returns 0x00 (0000ms, 0779ms total)
T0B80 001:560 JLINK_WriteReg(R13 (SP), 0x20001000)  returns 0x00 (0000ms, 0779ms total)
T0B80 001:560 JLINK_WriteReg(R14, 0x20000001)  returns 0x00 (0000ms, 0779ms total)
T0B80 001:560 JLINK_WriteReg(R15 (PC), 0x200000F4)  returns 0x00 (0000ms, 0779ms total)
T0B80 001:560 JLINK_WriteReg(XPSR, 0x01000000)  returns 0x00 (0000ms, 0779ms total)
T0B80 001:560 JLINK_WriteReg(MSP, 0x20001000)  returns 0x00 (0000ms, 0779ms total)
T0B80 001:560 JLINK_WriteReg(PSP, 0x20001000)  returns 0x00 (0000ms, 0779ms total)
T0B80 001:560 JLINK_WriteReg(CFBP, 0x00000000)  returns 0x00 (0000ms, 0779ms total)
T0B80 001:560 JLINK_SetBPEx(Addr = 0x20000000, Type = 0xFFFFFFF2)  returns 0x00000008 (0000ms, 0779ms total)
T0B80 001:560 JLINK_Go() (0003ms, 0782ms total)
T0B80 001:563 JLINK_IsHalted()  returns FALSE (0001ms, 0783ms total)
T0B80 001:574 JLINK_IsHalted()  returns FALSE (0000ms, 0782ms total)
T0B80 001:575 JLINK_IsHalted()  returns FALSE (0000ms, 0782ms total)
T0B80 001:576 JLINK_IsHalted()  returns FALSE (0000ms, 0782ms total)
T0B80 001:577 JLINK_IsHalted()  returns FALSE (0000ms, 0782ms total)
T0B80 001:580 JLINK_IsHalted()  returns FALSE (0000ms, 0782ms total)
T0B80 001:581 JLINK_IsHalted()  returns FALSE (0000ms, 0782ms total)
T0B80 001:582 JLINK_IsHalted()  returns FALSE (0000ms, 0782ms total)
T0B80 001:583 JLINK_IsHalted()  returns FALSE (0000ms, 0782ms total)
T0B80 001:584 JLINK_IsHalted()  returns FALSE (0000ms, 0782ms total)
T0B80 001:585 JLINK_IsHalted()  returns FALSE (0000ms, 0782ms total)
T0B80 001:586 JLINK_IsHalted()  returns FALSE (0001ms, 0783ms total)
T0B80 001:588 JLINK_IsHalted()  returns FALSE (0000ms, 0782ms total)
T0B80 001:589 JLINK_IsHalted()  returns FALSE (0000ms, 0782ms total)
T0B80 001:590 JLINK_IsHalted()  returns FALSE (0000ms, 0782ms total)
T0B80 001:591 JLINK_IsHalted()  returns FALSE (0001ms, 0783ms total)
T0B80 001:594 JLINK_IsHalted() -- CPU_ReadMem(2 bytes @ 0x20000000)  returns TRUE (0003ms, 0785ms total)
T0B80 001:597 JLINK_ReadReg(R15 (PC))  returns 0x20000000 (0000ms, 0782ms total)
T0B80 001:597 JLINK_ClrBPEx(BPHandle = 0x00000008)  returns 0x00 (0000ms, 0782ms total)
T0B80 001:597 JLINK_ReadReg(R0)  returns 0x00000000 (0000ms, 0782ms total)
T0B80 001:598 JLINK_WriteMem(0x20000164, 0x0400 Bytes, ...) -- Data:  11 B9 6F F0 0B 00 CB E7 16 B9 6F F0 0A 00 C7 E7 ... -- CPU_WriteMem(1024 bytes @ 0x20000164)  returns 0x400 (0006ms, 0788ms total)
T0B80 001:604 JLINK_WriteReg(R0, 0x08001000)  returns 0x00 (0000ms, 0788ms total)
T0B80 001:604 JLINK_WriteReg(R1, 0x00000400)  returns 0x00 (0000ms, 0788ms total)
T0B80 001:604 JLINK_WriteReg(R2, 0x20000164)  returns 0x00 (0000ms, 0788ms total)
T0B80 001:604 JLINK_WriteReg(R3, 0x00000000)  returns 0x00 (0000ms, 0788ms total)
T0B80 001:604 JLINK_WriteReg(R4, 0x00000000)  returns 0x00 (0000ms, 0788ms total)
T0B80 001:604 JLINK_WriteReg(R5, 0x00000000)  returns 0x00 (0000ms, 0788ms total)
T0B80 001:604 JLINK_WriteReg(R6, 0x00000000)  returns 0x00 (0000ms, 0788ms total)
T0B80 001:604 JLINK_WriteReg(R7, 0x00000000)  returns 0x00 (0000ms, 0788ms total)
T0B80 001:604 JLINK_WriteReg(R8, 0x00000000)  returns 0x00 (0000ms, 0788ms total)
T0B80 001:604 JLINK_WriteReg(R9, 0x20000160)  returns 0x00 (0000ms, 0788ms total)
T0B80 001:604 JLINK_WriteReg(R10, 0x00000000)  returns 0x00 (0000ms, 0788ms total)
T0B80 001:604 JLINK_WriteReg(R11, 0x00000000)  returns 0x00 (0000ms, 0788ms total)
T0B80 001:604 JLINK_WriteReg(R12, 0x00000000)  returns 0x00 (0000ms, 0788ms total)
T0B80 001:604 JLINK_WriteReg(R13 (SP), 0x20001000)  returns 0x00 (0000ms, 0788ms total)
T0B80 001:604 JLINK_WriteReg(R14, 0x20000001)  returns 0x00 (0000ms, 0788ms total)
T0B80 001:604 JLINK_WriteReg(R15 (PC), 0x200000F4)  returns 0x00 (0000ms, 0788ms total)
T0B80 001:604 JLINK_WriteReg(XPSR, 0x01000000)  returns 0x00 (0000ms, 0788ms total)
T0B80 001:604 JLINK_WriteReg(MSP, 0x20001000)  returns 0x00 (0000ms, 0788ms total)
T0B80 001:604 JLINK_WriteReg(PSP, 0x20001000)  returns 0x00 (0000ms, 0788ms total)
T0B80 001:604 JLINK_WriteReg(CFBP, 0x00000000)  returns 0x00 (0000ms, 0788ms total)
T0B80 001:604 JLINK_SetBPEx(Addr = 0x20000000, Type = 0xFFFFFFF2)  returns 0x00000009 (0000ms, 0788ms total)
T0B80 001:604 JLINK_Go() (0003ms, 0791ms total)
T0B80 001:607 JLINK_IsHalted()  returns FALSE (0001ms, 0792ms total)
T0B80 001:609 JLINK_IsHalted()  returns FALSE (0000ms, 0791ms total)
T0B80 001:610 JLINK_IsHalted()  returns FALSE (0000ms, 0791ms total)
T0B80 001:611 JLINK_IsHalted()  returns FALSE (0000ms, 0791ms total)
T0B80 001:612 JLINK_IsHalted()  returns FALSE (0000ms, 0791ms total)
T0B80 001:613 JLINK_IsHalted()  returns FALSE (0000ms, 0791ms total)
T0B80 001:614 JLINK_IsHalted()  returns FALSE (0000ms, 0791ms total)
T0B80 001:615 JLINK_IsHalted()  returns FALSE (0000ms, 0791ms total)
T0B80 001:616 JLINK_IsHalted()  returns FALSE (0000ms, 0791ms total)
T0B80 001:617 JLINK_IsHalted()  returns FALSE (0000ms, 0791ms total)
T0B80 001:618 JLINK_IsHalted()  returns FALSE (0000ms, 0791ms total)
T0B80 001:619 JLINK_IsHalted()  returns FALSE (0000ms, 0791ms total)
T0B80 001:620 JLINK_IsHalted()  returns FALSE (0000ms, 0791ms total)
T0B80 001:621 JLINK_IsHalted()  returns FALSE (0000ms, 0791ms total)
T0B80 001:622 JLINK_IsHalted()  returns FALSE (0000ms, 0791ms total)
T0B80 001:623 JLINK_IsHalted()  returns FALSE (0001ms, 0792ms total)
T0B80 001:625 JLINK_IsHalted()  returns FALSE (0000ms, 0791ms total)
T0B80 001:626 JLINK_IsHalted()  returns FALSE (0000ms, 0791ms total)
T0B80 001:627 JLINK_IsHalted()  returns FALSE (0000ms, 0791ms total)
T0B80 001:628 JLINK_IsHalted()  returns FALSE (0000ms, 0791ms total)
T0B80 001:629 JLINK_IsHalted()  returns FALSE (0000ms, 0791ms total)
T0B80 001:630 JLINK_IsHalted()  returns FALSE (0000ms, 0791ms total)
T0B80 001:631 JLINK_IsHalted()  returns FALSE (0000ms, 0791ms total)
T0B80 001:632 JLINK_IsHalted()  returns FALSE (0000ms, 0791ms total)
T0B80 001:633 JLINK_IsHalted()  returns FALSE (0000ms, 0791ms total)
T0B80 001:634 JLINK_IsHalted()  returns FALSE (0000ms, 0791ms total)
T0B80 001:635 JLINK_IsHalted()  returns FALSE (0000ms, 0791ms total)
T0B80 001:636 JLINK_IsHalted()  returns FALSE (0000ms, 0791ms total)
T0B80 001:637 JLINK_IsHalted()  returns FALSE (0000ms, 0791ms total)
T0B80 001:638 JLINK_IsHalted() -- CPU_ReadMem(2 bytes @ 0x20000000)  returns TRUE (0004ms, 0795ms total)
T0B80 001:642 JLINK_ReadReg(R15 (PC))  returns 0x20000000 (0000ms, 0791ms total)
T0B80 001:642 JLINK_ClrBPEx(BPHandle = 0x00000009)  returns 0x00 (0000ms, 0791ms total)
T0B80 001:642 JLINK_ReadReg(R0)  returns 0x00000000 (0000ms, 0791ms total)
T0B80 001:643 JLINK_WriteMem(0x20000164, 0x0400 Bytes, ...) -- Data:  02 EB C1 00 40 21 00 F0 E8 FF 00 BF A1 00 49 1C ... -- CPU_WriteMem(1024 bytes @ 0x20000164)  returns 0x400 (0006ms, 0797ms total)
T0B80 001:649 JLINK_WriteReg(R0, 0x08001400)  returns 0x00 (0000ms, 0797ms total)
T0B80 001:649 JLINK_WriteReg(R1, 0x00000400)  returns 0x00 (0000ms, 0797ms total)
T0B80 001:649 JLINK_WriteReg(R2, 0x20000164)  returns 0x00 (0000ms, 0797ms total)
T0B80 001:649 JLINK_WriteReg(R3, 0x00000000)  returns 0x00 (0000ms, 0797ms total)
T0B80 001:649 JLINK_WriteReg(R4, 0x00000000)  returns 0x00 (0000ms, 0797ms total)
T0B80 001:649 JLINK_WriteReg(R5, 0x00000000)  returns 0x00 (0000ms, 0797ms total)
T0B80 001:649 JLINK_WriteReg(R6, 0x00000000)  returns 0x00 (0000ms, 0797ms total)
T0B80 001:649 JLINK_WriteReg(R7, 0x00000000)  returns 0x00 (0000ms, 0797ms total)
T0B80 001:649 JLINK_WriteReg(R8, 0x00000000)  returns 0x00 (0000ms, 0797ms total)
T0B80 001:649 JLINK_WriteReg(R9, 0x20000160)  returns 0x00 (0000ms, 0797ms total)
T0B80 001:649 JLINK_WriteReg(R10, 0x00000000)  returns 0x00 (0000ms, 0797ms total)
T0B80 001:649 JLINK_WriteReg(R11, 0x00000000)  returns 0x00 (0000ms, 0797ms total)
T0B80 001:649 JLINK_WriteReg(R12, 0x00000000)  returns 0x00 (0000ms, 0797ms total)
T0B80 001:649 JLINK_WriteReg(R13 (SP), 0x20001000)  returns 0x00 (0000ms, 0797ms total)
T0B80 001:649 JLINK_WriteReg(R14, 0x20000001)  returns 0x00 (0000ms, 0797ms total)
T0B80 001:649 JLINK_WriteReg(R15 (PC), 0x200000F4)  returns 0x00 (0000ms, 0797ms total)
T0B80 001:649 JLINK_WriteReg(XPSR, 0x01000000)  returns 0x00 (0000ms, 0797ms total)
T0B80 001:649 JLINK_WriteReg(MSP, 0x20001000)  returns 0x00 (0000ms, 0797ms total)
T0B80 001:649 JLINK_WriteReg(PSP, 0x20001000)  returns 0x00 (0000ms, 0797ms total)
T0B80 001:649 JLINK_WriteReg(CFBP, 0x00000000)  returns 0x00 (0000ms, 0797ms total)
T0B80 001:649 JLINK_SetBPEx(Addr = 0x20000000, Type = 0xFFFFFFF2)  returns 0x0000000A (0000ms, 0797ms total)
T0B80 001:649 JLINK_Go() (0003ms, 0800ms total)
T0B80 001:652 JLINK_IsHalted()  returns FALSE (0001ms, 0801ms total)
T0B80 001:655 JLINK_IsHalted()  returns FALSE (0000ms, 0800ms total)
T0B80 001:656 JLINK_IsHalted()  returns FALSE (0001ms, 0801ms total)
T0B80 001:667 JLINK_IsHalted()  returns FALSE (0000ms, 0800ms total)
T0B80 001:668 JLINK_IsHalted()  returns FALSE (0000ms, 0800ms total)
T0B80 001:669 JLINK_IsHalted()  returns FALSE (0000ms, 0800ms total)
T0B80 001:670 JLINK_IsHalted()  returns FALSE (0001ms, 0801ms total)
T0B80 001:672 JLINK_IsHalted()  returns FALSE (0000ms, 0800ms total)
T0B80 001:673 JLINK_IsHalted()  returns FALSE (0000ms, 0800ms total)
T0B80 001:674 JLINK_IsHalted()  returns FALSE (0000ms, 0800ms total)
T0B80 001:675 JLINK_IsHalted()  returns FALSE (0000ms, 0800ms total)
T0B80 001:676 JLINK_IsHalted()  returns FALSE (0000ms, 0800ms total)
T0B80 001:677 JLINK_IsHalted()  returns FALSE (0000ms, 0800ms total)
T0B80 001:678 JLINK_IsHalted()  returns FALSE (0000ms, 0800ms total)
T0B80 001:679 JLINK_IsHalted()  returns FALSE (0000ms, 0800ms total)
T0B80 001:680 JLINK_IsHalted()  returns FALSE (0000ms, 0800ms total)
T0B80 001:681 JLINK_IsHalted()  returns FALSE (0000ms, 0800ms total)
T0B80 001:683 JLINK_IsHalted() -- CPU_ReadMem(2 bytes @ 0x20000000)  returns TRUE (0003ms, 0803ms total)
T0B80 001:686 JLINK_ReadReg(R15 (PC))  returns 0x20000000 (0000ms, 0800ms total)
T0B80 001:686 JLINK_ClrBPEx(BPHandle = 0x0000000A)  returns 0x00 (0000ms, 0800ms total)
T0B80 001:686 JLINK_ReadReg(R0)  returns 0x00000000 (0000ms, 0800ms total)
T0B80 001:686 JLINK_WriteMem(0x20000164, 0x0400 Bytes, ...) -- Data:  00 BF 00 BF A1 00 49 1C 4F F4 80 72 02 EB C1 00 ... -- CPU_WriteMem(1024 bytes @ 0x20000164)  returns 0x400 (0007ms, 0807ms total)
T0B80 001:693 JLINK_WriteReg(R0, 0x08001800)  returns 0x00 (0000ms, 0807ms total)
T0B80 001:693 JLINK_WriteReg(R1, 0x00000400)  returns 0x00 (0000ms, 0807ms total)
T0B80 001:693 JLINK_WriteReg(R2, 0x20000164)  returns 0x00 (0000ms, 0807ms total)
T0B80 001:693 JLINK_WriteReg(R3, 0x00000000)  returns 0x00 (0000ms, 0807ms total)
T0B80 001:693 JLINK_WriteReg(R4, 0x00000000)  returns 0x00 (0000ms, 0807ms total)
T0B80 001:693 JLINK_WriteReg(R5, 0x00000000)  returns 0x00 (0000ms, 0807ms total)
T0B80 001:693 JLINK_WriteReg(R6, 0x00000000)  returns 0x00 (0000ms, 0807ms total)
T0B80 001:693 JLINK_WriteReg(R7, 0x00000000)  returns 0x00 (0000ms, 0807ms total)
T0B80 001:693 JLINK_WriteReg(R8, 0x00000000)  returns 0x00 (0000ms, 0807ms total)
T0B80 001:693 JLINK_WriteReg(R9, 0x20000160)  returns 0x00 (0000ms, 0807ms total)
T0B80 001:693 JLINK_WriteReg(R10, 0x00000000)  returns 0x00 (0000ms, 0807ms total)
T0B80 001:693 JLINK_WriteReg(R11, 0x00000000)  returns 0x00 (0000ms, 0807ms total)
T0B80 001:693 JLINK_WriteReg(R12, 0x00000000)  returns 0x00 (0000ms, 0807ms total)
T0B80 001:693 JLINK_WriteReg(R13 (SP), 0x20001000)  returns 0x00 (0000ms, 0807ms total)
T0B80 001:693 JLINK_WriteReg(R14, 0x20000001)  returns 0x00 (0000ms, 0807ms total)
T0B80 001:693 JLINK_WriteReg(R15 (PC), 0x200000F4)  returns 0x00 (0000ms, 0807ms total)
T0B80 001:693 JLINK_WriteReg(XPSR, 0x01000000)  returns 0x00 (0000ms, 0807ms total)
T0B80 001:693 JLINK_WriteReg(MSP, 0x20001000)  returns 0x00 (0000ms, 0807ms total)
T0B80 001:693 JLINK_WriteReg(PSP, 0x20001000)  returns 0x00 (0000ms, 0807ms total)
T0B80 001:693 JLINK_WriteReg(CFBP, 0x00000000)  returns 0x00 (0000ms, 0807ms total)
T0B80 001:693 JLINK_SetBPEx(Addr = 0x20000000, Type = 0xFFFFFFF2)  returns 0x0000000B (0000ms, 0807ms total)
T0B80 001:693 JLINK_Go() (0003ms, 0810ms total)
T0B80 001:696 JLINK_IsHalted()  returns FALSE (0001ms, 0811ms total)
T0B80 001:703 JLINK_IsHalted()  returns FALSE (0000ms, 0810ms total)
T0B80 001:704 JLINK_IsHalted()  returns FALSE (0000ms, 0810ms total)
T0B80 001:705 JLINK_IsHalted()  returns FALSE (0000ms, 0810ms total)
T0B80 001:706 JLINK_IsHalted()  returns FALSE (0000ms, 0810ms total)
T0B80 001:707 JLINK_IsHalted()  returns FALSE (0000ms, 0810ms total)
T0B80 001:708 JLINK_IsHalted()  returns FALSE (0000ms, 0810ms total)
T0B80 001:709 JLINK_IsHalted()  returns FALSE (0000ms, 0810ms total)
T0B80 001:710 JLINK_IsHalted()  returns FALSE (0000ms, 0810ms total)
T0B80 001:711 JLINK_IsHalted()  returns FALSE (0000ms, 0810ms total)
T0B80 001:712 JLINK_IsHalted()  returns FALSE (0000ms, 0810ms total)
T0B80 001:713 JLINK_IsHalted()  returns FALSE (0000ms, 0810ms total)
T0B80 001:714 JLINK_IsHalted()  returns FALSE (0000ms, 0810ms total)
T0B80 001:715 JLINK_IsHalted()  returns FALSE (0000ms, 0810ms total)
T0B80 001:716 JLINK_IsHalted()  returns FALSE (0000ms, 0810ms total)
T0B80 001:717 JLINK_IsHalted()  returns FALSE (0000ms, 0810ms total)
T0B80 001:718 JLINK_IsHalted()  returns FALSE (0000ms, 0810ms total)
T0B80 001:719 JLINK_IsHalted()  returns FALSE (0001ms, 0811ms total)
T0B80 001:721 JLINK_IsHalted()  returns FALSE (0000ms, 0810ms total)
T0B80 001:722 JLINK_IsHalted()  returns FALSE (0000ms, 0810ms total)
T0B80 001:723 JLINK_IsHalted()  returns FALSE (0000ms, 0810ms total)
T0B80 001:724 JLINK_IsHalted()  returns FALSE (0000ms, 0810ms total)
T0B80 001:725 JLINK_IsHalted()  returns FALSE (0000ms, 0810ms total)
T0B80 001:726 JLINK_IsHalted()  returns FALSE (0000ms, 0810ms total)
T0B80 001:727 JLINK_IsHalted() -- CPU_ReadMem(2 bytes @ 0x20000000)  returns TRUE (0003ms, 0813ms total)
T0B80 001:730 JLINK_ReadReg(R15 (PC))  returns 0x20000000 (0000ms, 0810ms total)
T0B80 001:730 JLINK_ClrBPEx(BPHandle = 0x0000000B)  returns 0x00 (0000ms, 0810ms total)
T0B80 001:730 JLINK_ReadReg(R0)  returns 0x00000000 (0000ms, 0810ms total)
T0B80 001:731 JLINK_WriteMem(0x20000164, 0x0400 Bytes, ...) -- Data:  C9 FB 00 F0 0F 00 01 28 03 D0 6F F0 04 00 8A E7 ... -- CPU_WriteMem(1024 bytes @ 0x20000164)  returns 0x400 (0006ms, 0816ms total)
T0B80 001:737 JLINK_WriteReg(R0, 0x08001C00)  returns 0x00 (0000ms, 0816ms total)
T0B80 001:737 JLINK_WriteReg(R1, 0x00000400)  returns 0x00 (0000ms, 0816ms total)
T0B80 001:737 JLINK_WriteReg(R2, 0x20000164)  returns 0x00 (0000ms, 0816ms total)
T0B80 001:737 JLINK_WriteReg(R3, 0x00000000)  returns 0x00 (0000ms, 0816ms total)
T0B80 001:737 JLINK_WriteReg(R4, 0x00000000)  returns 0x00 (0000ms, 0816ms total)
T0B80 001:737 JLINK_WriteReg(R5, 0x00000000)  returns 0x00 (0000ms, 0816ms total)
T0B80 001:737 JLINK_WriteReg(R6, 0x00000000)  returns 0x00 (0000ms, 0816ms total)
T0B80 001:737 JLINK_WriteReg(R7, 0x00000000)  returns 0x00 (0000ms, 0816ms total)
T0B80 001:737 JLINK_WriteReg(R8, 0x00000000)  returns 0x00 (0000ms, 0816ms total)
T0B80 001:737 JLINK_WriteReg(R9, 0x20000160)  returns 0x00 (0000ms, 0816ms total)
T0B80 001:737 JLINK_WriteReg(R10, 0x00000000)  returns 0x00 (0000ms, 0816ms total)
T0B80 001:737 JLINK_WriteReg(R11, 0x00000000)  returns 0x00 (0000ms, 0816ms total)
T0B80 001:737 JLINK_WriteReg(R12, 0x00000000)  returns 0x00 (0000ms, 0816ms total)
T0B80 001:737 JLINK_WriteReg(R13 (SP), 0x20001000)  returns 0x00 (0000ms, 0816ms total)
T0B80 001:737 JLINK_WriteReg(R14, 0x20000001)  returns 0x00 (0000ms, 0816ms total)
T0B80 001:737 JLINK_WriteReg(R15 (PC), 0x200000F4)  returns 0x00 (0000ms, 0816ms total)
T0B80 001:737 JLINK_WriteReg(XPSR, 0x01000000)  returns 0x00 (0000ms, 0816ms total)
T0B80 001:737 JLINK_WriteReg(MSP, 0x20001000)  returns 0x00 (0000ms, 0816ms total)
T0B80 001:737 JLINK_WriteReg(PSP, 0x20001000)  returns 0x00 (0000ms, 0816ms total)
T0B80 001:737 JLINK_WriteReg(CFBP, 0x00000000)  returns 0x00 (0000ms, 0816ms total)
T0B80 001:737 JLINK_SetBPEx(Addr = 0x20000000, Type = 0xFFFFFFF2)  returns 0x0000000C (0000ms, 0816ms total)
T0B80 001:737 JLINK_Go() (0003ms, 0819ms total)
T0B80 001:740 JLINK_IsHalted()  returns FALSE (0001ms, 0820ms total)
T0B80 001:742 JLINK_IsHalted()  returns FALSE (0000ms, 0819ms total)
T0B80 001:743 JLINK_IsHalted()  returns FALSE (0000ms, 0819ms total)
T0B80 001:744 JLINK_IsHalted()  returns FALSE (0000ms, 0819ms total)
T0B80 001:745 JLINK_IsHalted()  returns FALSE (0000ms, 0819ms total)
T0B80 001:746 JLINK_IsHalted()  returns FALSE (0000ms, 0819ms total)
T0B80 001:747 JLINK_IsHalted()  returns FALSE (0000ms, 0819ms total)
T0B80 001:749 JLINK_IsHalted()  returns FALSE (0000ms, 0819ms total)
T0B80 001:750 JLINK_IsHalted()  returns FALSE (0000ms, 0819ms total)
T0B80 001:751 JLINK_IsHalted()  returns FALSE (0000ms, 0819ms total)
T0B80 001:752 JLINK_IsHalted()  returns FALSE (0000ms, 0819ms total)
T0B80 001:753 JLINK_IsHalted()  returns FALSE (0000ms, 0819ms total)
T0B80 001:754 JLINK_IsHalted()  returns FALSE (0000ms, 0819ms total)
T0B80 001:755 JLINK_IsHalted()  returns FALSE (0000ms, 0819ms total)
T0B80 001:756 JLINK_IsHalted()  returns FALSE (0000ms, 0819ms total)
T0B80 001:757 JLINK_IsHalted()  returns FALSE (0000ms, 0819ms total)
T0B80 001:758 JLINK_IsHalted()  returns FALSE (0001ms, 0820ms total)
T0B80 001:760 JLINK_IsHalted()  returns FALSE (0000ms, 0819ms total)
T0B80 001:761 JLINK_IsHalted()  returns FALSE (0000ms, 0819ms total)
T0B80 001:762 JLINK_IsHalted()  returns FALSE (0000ms, 0819ms total)
T0B80 001:763 JLINK_IsHalted()  returns FALSE (0000ms, 0819ms total)
T0B80 001:764 JLINK_IsHalted()  returns FALSE (0000ms, 0819ms total)
T0B80 001:765 JLINK_IsHalted()  returns FALSE (0001ms, 0820ms total)
T0B80 001:776 JLINK_IsHalted() -- CPU_ReadMem(2 bytes @ 0x20000000)  returns TRUE (0003ms, 0822ms total)
T0B80 001:779 JLINK_ReadReg(R15 (PC))  returns 0x20000000 (0000ms, 0819ms total)
T0B80 001:779 JLINK_ClrBPEx(BPHandle = 0x0000000C)  returns 0x00 (0000ms, 0819ms total)
T0B80 001:779 JLINK_ReadReg(R0)  returns 0x00000000 (0000ms, 0819ms total)
T0B80 001:780 JLINK_WriteMem(0x20000164, 0x0400 Bytes, ...) -- Data:  05 B0 00 BD 2D E9 F0 41 05 46 0E 46 00 27 FF F7 ... -- CPU_WriteMem(1024 bytes @ 0x20000164)  returns 0x400 (0006ms, 0825ms total)
T0B80 001:786 JLINK_WriteReg(R0, 0x08002000)  returns 0x00 (0000ms, 0825ms total)
T0B80 001:786 JLINK_WriteReg(R1, 0x00000400)  returns 0x00 (0000ms, 0825ms total)
T0B80 001:786 JLINK_WriteReg(R2, 0x20000164)  returns 0x00 (0000ms, 0825ms total)
T0B80 001:786 JLINK_WriteReg(R3, 0x00000000)  returns 0x00 (0000ms, 0825ms total)
T0B80 001:786 JLINK_WriteReg(R4, 0x00000000)  returns 0x00 (0000ms, 0825ms total)
T0B80 001:786 JLINK_WriteReg(R5, 0x00000000)  returns 0x00 (0000ms, 0825ms total)
T0B80 001:786 JLINK_WriteReg(R6, 0x00000000)  returns 0x00 (0000ms, 0825ms total)
T0B80 001:786 JLINK_WriteReg(R7, 0x00000000)  returns 0x00 (0000ms, 0825ms total)
T0B80 001:786 JLINK_WriteReg(R8, 0x00000000)  returns 0x00 (0000ms, 0825ms total)
T0B80 001:786 JLINK_WriteReg(R9, 0x20000160)  returns 0x00 (0000ms, 0825ms total)
T0B80 001:786 JLINK_WriteReg(R10, 0x00000000)  returns 0x00 (0000ms, 0825ms total)
T0B80 001:786 JLINK_WriteReg(R11, 0x00000000)  returns 0x00 (0000ms, 0825ms total)
T0B80 001:786 JLINK_WriteReg(R12, 0x00000000)  returns 0x00 (0000ms, 0825ms total)
T0B80 001:786 JLINK_WriteReg(R13 (SP), 0x20001000)  returns 0x00 (0000ms, 0825ms total)
T0B80 001:786 JLINK_WriteReg(R14, 0x20000001)  returns 0x00 (0000ms, 0825ms total)
T0B80 001:786 JLINK_WriteReg(R15 (PC), 0x200000F4)  returns 0x00 (0000ms, 0825ms total)
T0B80 001:786 JLINK_WriteReg(XPSR, 0x01000000)  returns 0x00 (0000ms, 0825ms total)
T0B80 001:786 JLINK_WriteReg(MSP, 0x20001000)  returns 0x00 (0000ms, 0825ms total)
T0B80 001:786 JLINK_WriteReg(PSP, 0x20001000)  returns 0x00 (0000ms, 0825ms total)
T0B80 001:786 JLINK_WriteReg(CFBP, 0x00000000)  returns 0x00 (0000ms, 0825ms total)
T0B80 001:786 JLINK_SetBPEx(Addr = 0x20000000, Type = 0xFFFFFFF2)  returns 0x0000000D (0000ms, 0825ms total)
T0B80 001:786 JLINK_Go() (0003ms, 0828ms total)
T0B80 001:789 JLINK_IsHalted()  returns FALSE (0001ms, 0829ms total)
T0B80 001:791 JLINK_IsHalted()  returns FALSE (0000ms, 0828ms total)
T0B80 001:792 JLINK_IsHalted()  returns FALSE (0000ms, 0828ms total)
T0B80 001:793 JLINK_IsHalted()  returns FALSE (0000ms, 0828ms total)
T0B80 001:794 JLINK_IsHalted()  returns FALSE (0000ms, 0828ms total)
T0B80 001:795 JLINK_IsHalted()  returns FALSE (0001ms, 0829ms total)
T0B80 001:800 JLINK_IsHalted()  returns FALSE (0000ms, 0828ms total)
T0B80 001:801 JLINK_IsHalted()  returns FALSE (0000ms, 0828ms total)
T0B80 001:802 JLINK_IsHalted()  returns FALSE (0000ms, 0828ms total)
T0B80 001:803 JLINK_IsHalted()  returns FALSE (0000ms, 0828ms total)
T0B80 001:804 JLINK_IsHalted()  returns FALSE (0000ms, 0828ms total)
T0B80 001:805 JLINK_IsHalted()  returns FALSE (0000ms, 0828ms total)
T0B80 001:806 JLINK_IsHalted()  returns FALSE (0000ms, 0828ms total)
T0B80 001:807 JLINK_IsHalted()  returns FALSE (0000ms, 0828ms total)
T0B80 001:808 JLINK_IsHalted()  returns FALSE (0000ms, 0828ms total)
T0B80 001:809 JLINK_IsHalted()  returns FALSE (0000ms, 0828ms total)
T0B80 001:810 JLINK_IsHalted()  returns FALSE (0000ms, 0828ms total)
T0B80 001:812 JLINK_IsHalted()  returns FALSE (0000ms, 0828ms total)
T0B80 001:813 JLINK_IsHalted()  returns FALSE (0000ms, 0828ms total)
T0B80 001:814 JLINK_IsHalted()  returns FALSE (0000ms, 0828ms total)
T0B80 001:815 JLINK_IsHalted()  returns FALSE (0000ms, 0828ms total)
T0B80 001:816 JLINK_IsHalted()  returns FALSE (0000ms, 0828ms total)
T0B80 001:817 JLINK_IsHalted()  returns FALSE (0000ms, 0828ms total)
T0B80 001:818 JLINK_IsHalted()  returns FALSE (0000ms, 0828ms total)
T0B80 001:819 JLINK_IsHalted()  returns FALSE (0000ms, 0828ms total)
T0B80 001:820 JLINK_IsHalted() -- CPU_ReadMem(2 bytes @ 0x20000000)  returns TRUE (0003ms, 0831ms total)
T0B80 001:823 JLINK_ReadReg(R15 (PC))  returns 0x20000000 (0000ms, 0828ms total)
T0B80 001:823 JLINK_ClrBPEx(BPHandle = 0x0000000D)  returns 0x00 (0000ms, 0828ms total)
T0B80 001:823 JLINK_ReadReg(R0)  returns 0x00000000 (0000ms, 0828ms total)
T0B80 001:824 JLINK_WriteMem(0x20000164, 0x0400 Bytes, ...) -- Data:  07 20 88 47 E0 B2 C5 4A D1 69 88 47 C3 48 C1 69 ... -- CPU_WriteMem(1024 bytes @ 0x20000164)  returns 0x400 (0006ms, 0834ms total)
T0B80 001:830 JLINK_WriteReg(R0, 0x08002400)  returns 0x00 (0000ms, 0834ms total)
T0B80 001:830 JLINK_WriteReg(R1, 0x00000400)  returns 0x00 (0000ms, 0834ms total)
T0B80 001:830 JLINK_WriteReg(R2, 0x20000164)  returns 0x00 (0000ms, 0834ms total)
T0B80 001:830 JLINK_WriteReg(R3, 0x00000000)  returns 0x00 (0000ms, 0834ms total)
T0B80 001:830 JLINK_WriteReg(R4, 0x00000000)  returns 0x00 (0000ms, 0834ms total)
T0B80 001:830 JLINK_WriteReg(R5, 0x00000000)  returns 0x00 (0000ms, 0834ms total)
T0B80 001:830 JLINK_WriteReg(R6, 0x00000000)  returns 0x00 (0000ms, 0834ms total)
